T4C94 000:012.917   SEGGER J-Link V7.60b Log File
T4C94 000:013.115   DLL Compiled: Dec 22 2021 12:50:18
T4C94 000:013.124   Logging started @ 2021-12-24 06:03
T4C94 000:013.132 - 13.136ms
T4C94 000:013.148 JLINK_SetWarnOutHandler(...)
T4C94 000:013.158 - 0.014ms
T4C94 000:013.168 JLINK_OpenEx(...)
T4C94 000:014.960   Firmware: J-Link V9 compiled May  7 2021 16:26:12
T4C94 000:015.295   Firmware: J-Link V9 compiled May  7 2021 16:26:12
T4C94 000:015.519   Decompressing FW timestamp took 177 us
T4C94 000:021.530   Hardware: V9.70
T4C94 000:021.556   S/N: 59700618
T4C94 000:021.573   OEM: SEGGER
T4C94 000:021.584   Feature(s): RDI, FlashBP, FlashDL, JFlash, GDB
T4C94 000:023.026   TELNET listener socket opened on port 19021
T4C94 000:023.409   WEBSRV WEBSRV_Init(): Starting webserver thread(s)
T4C94 000:023.578   WEBSRV Webserver running on local port 19080
T4C94 000:066.506 - 53.409ms returns "O.K."
T4C94 000:066.621 JLINK_GetEmuCaps()
T4C94 000:066.630 - 0.013ms returns 0xB9FF7BBF
T4C94 000:066.645 JLINK_TIF_GetAvailable(...)
T4C94 000:066.838 - 0.204ms
T4C94 000:066.866 JLINK_SetErrorOutHandler(...)
T4C94 000:066.875 - 0.012ms
T4C94 000:066.908 JLINK_ExecCommand("ProjectFile = "C:\Users\zhang\Desktop\rtk20\RTK20\MDK-ARM\JLinkSettings.ini"", ...). 
T4C94 000:079.392   Ref file found at: C:\Program Files\Keil\Keil_ARM\ARM\Segger\JLinkDevices.ref
T4C94 000:079.727   XML referenced by ref file: C:\Program Files\SEGGER\JLink\JLinkDevices.xml
T4C94 000:080.824   C:\Program Files\SEGGER\JLink\JLinkDevices.xml evaluated successfully.
T4C94 000:232.718 - 165.827ms returns 0x00
T4C94 000:237.794 JLINK_ExecCommand("Device = STM32F030F4Px", ...). 
T4C94 000:242.572   Device "STM32F030F4" selected.
T4C94 000:243.144 - 5.335ms returns 0x00
T4C94 000:243.166 JLINK_ExecCommand("DisableConnectionTimeout", ...). 
T4C94 000:243.179 - 0.006ms returns 0x01
T4C94 000:243.190 JLINK_GetHardwareVersion()
T4C94 000:243.198 - 0.012ms returns 97000
T4C94 000:243.210 JLINK_GetDLLVersion()
T4C94 000:243.218 - 0.011ms returns 76002
T4C94 000:243.228 JLINK_GetOEMString(...)
T4C94 000:243.238 JLINK_GetFirmwareString(...)
T4C94 000:243.254 - 0.020ms
T4C94 000:258.442 JLINK_GetDLLVersion()
T4C94 000:258.471 - 0.033ms returns 76002
T4C94 000:258.482 JLINK_GetCompileDateTime()
T4C94 000:258.490 - 0.011ms
T4C94 000:262.736 JLINK_GetFirmwareString(...)
T4C94 000:262.755 - 0.024ms
T4C94 000:266.793 JLINK_GetHardwareVersion()
T4C94 000:266.814 - 0.025ms returns 97000
T4C94 000:272.337 JLINK_GetSN()
T4C94 000:272.361 - 0.029ms returns 59700618
T4C94 000:276.848 JLINK_GetOEMString(...)
T4C94 000:288.473 JLINK_TIF_Select(JLINKARM_TIF_SWD)
T4C94 000:289.043 - 0.579ms returns 0x00
T4C94 000:289.062 JLINK_HasError()
T4C94 000:289.081 JLINK_SetSpeed(5000)
T4C94 000:289.160 - 0.087ms
T4C94 000:289.178 JLINK_GetId()
T4C94 000:293.905   InitTarget() start
T4C94 000:293.932    J-Link Script File: Executing InitTarget()
T4C94 000:307.500   InitTarget() end
T4C94 000:312.438   Found SW-DP with ID 0x0BB11477
T4C94 000:321.620   DPIDR: 0x0BB11477
T4C94 000:326.235   CoreSight SoC-400 or earlier
T4C94 000:330.512   Scanning AP map to find all available APs
T4C94 000:335.824   AP[1]: Stopped AP scan as end of AP map has been reached
T4C94 000:340.153   AP[0]: AHB-AP (IDR: 0x04770021)
T4C94 000:344.695   Iterating through AP map to find AHB-AP to use
T4C94 000:351.011   AP[0]: Core found
T4C94 000:355.971   AP[0]: AHB-AP ROM base: 0xE00FF000
T4C94 000:361.334   CPUID register: 0x410CC200. Implementer code: 0x41 (ARM)
T4C94 000:365.605   Found Cortex-M0 r0p0, Little endian.
T4C94 000:466.374   -- Max. mem block: 0x00010E40
T4C94 000:466.532   CPU_ReadMem(4 bytes @ 0xE000EDF0)
T4C94 000:466.818   CPU_ReadMem(4 bytes @ 0xE0002000)
T4C94 000:472.524   FPUnit: 4 code (BP) slots and 0 literal slots
T4C94 000:472.558   CPU_ReadMem(4 bytes @ 0xE000EDFC)
T4C94 000:472.855   CPU_WriteMem(4 bytes @ 0xE000EDFC)
T4C94 000:473.141   CPU_ReadMem(4 bytes @ 0xE0001000)
T4C94 000:473.410   CPU_WriteMem(4 bytes @ 0xE0001000)
T4C94 000:479.667   CoreSight components:
T4C94 000:483.899   ROMTbl[0] @ E00FF000
T4C94 000:483.933   CPU_ReadMem(64 bytes @ 0xE00FF000)
T4C94 000:484.497   CPU_ReadMem(32 bytes @ 0xE000EFE0)
T4C94 000:489.822   [0][0]: E000E000 CID B105E00D PID 000BB008 SCS
T4C94 000:489.854   CPU_ReadMem(32 bytes @ 0xE0001FE0)
T4C94 000:495.248   [0][1]: E0001000 CID B105E00D PID 000BB00A DWT
T4C94 000:495.280   CPU_ReadMem(32 bytes @ 0xE0002FE0)
T4C94 000:499.825   [0][2]: E0002000 CID B105E00D PID 000BB00B FPB
T4C94 000:500.143 - 210.979ms returns 0x0BB11477
T4C94 000:500.177 JLINK_GetDLLVersion()
T4C94 000:500.186 - 0.013ms returns 76002
T4C94 000:500.200 JLINK_CORE_GetFound()
T4C94 000:500.209 - 0.013ms returns 0x60000FF
T4C94 000:500.219 JLINK_GetDebugInfo(0x100 = JLINKARM_ROM_TABLE_ADDR_INDEX)
T4C94 000:500.230   Value=0xE00FF000
T4C94 000:500.242 - 0.026ms returns 0
T4C94 000:508.697 JLINK_GetDebugInfo(0x100 = JLINKARM_ROM_TABLE_ADDR_INDEX)
T4C94 000:508.735   Value=0xE00FF000
T4C94 000:508.748 - 0.055ms returns 0
T4C94 000:508.760 JLINK_GetDebugInfo(0x101 = JLINKARM_DEBUG_INFO_ETM_ADDR_INDEX)
T4C94 000:508.769   Value=0x00000000
T4C94 000:508.780 - 0.024ms returns 0
T4C94 000:508.803 JLINK_ReadMemEx(0xE0041FF0, 0x10 Bytes, Flags = 0x02000004)
T4C94 000:508.854   CPU_ReadMem(16 bytes @ 0xE0041FF0)
T4C94 000:509.244   Data:  00 00 00 00 00 00 00 00 00 00 00 00 00 00 00 00
T4C94 000:509.264 - 0.465ms returns 16 (0x10)
T4C94 000:509.285 JLINK_GetDebugInfo(0x102 = JLINKARM_DEBUG_INFO_MTB_ADDR_INDEX)
T4C94 000:509.294   Value=0x00000000
T4C94 000:509.307 - 0.025ms returns 0
T4C94 000:509.317 JLINK_GetDebugInfo(0x103 = JLINKARM_DEBUG_INFO_TPIU_ADDR_INDEX)
T4C94 000:509.326   Value=0x00000000
T4C94 000:509.337 - 0.024ms returns 0
T4C94 000:509.347 JLINK_ReadMemEx(0xE0040FF0, 0x10 Bytes, Flags = 0x02000004)
T4C94 000:509.363   CPU_ReadMem(16 bytes @ 0xE0040FF0)
T4C94 000:509.677   Data:  00 00 00 00 00 00 00 00 00 00 00 00 00 00 00 00
T4C94 000:509.698 - 0.354ms returns 16 (0x10)
T4C94 000:509.711 JLINK_GetDebugInfo(0x104 = JLINKARM_DEBUG_INFO_ITM_ADDR_INDEX)
T4C94 000:509.720   Value=0xE0000000
T4C94 000:509.732 - 0.024ms returns 0
T4C94 000:509.742 JLINK_GetDebugInfo(0x105 = JLINKARM_DEBUG_INFO_DWT_ADDR_INDEX)
T4C94 000:509.750   Value=0xE0001000
T4C94 000:509.761 - 0.023ms returns 0
T4C94 000:509.771 JLINK_GetDebugInfo(0x106 = JLINKARM_DEBUG_INFO_FPB_ADDR_INDEX)
T4C94 000:509.779   Value=0xE0002000
T4C94 000:509.790 - 0.023ms returns 0
T4C94 000:509.800 JLINK_GetDebugInfo(0x107 = JLINKARM_DEBUG_INFO_NVIC_ADDR_INDEX)
T4C94 000:509.808   Value=0xE000E000
T4C94 000:509.819 - 0.023ms returns 0
T4C94 000:509.829 JLINK_GetDebugInfo(0x10C = JLINKARM_DEBUG_INFO_DBG_ADDR_INDEX)
T4C94 000:509.837   Value=0xE000EDF0
T4C94 000:509.848 - 0.022ms returns 0
T4C94 000:509.857 JLINK_GetDebugInfo(0x01 = Unknown)
T4C94 000:509.866   Value=0x00000000
T4C94 000:509.876 - 0.023ms returns 0
T4C94 000:509.886 JLINK_ReadMemU32(0xE000ED00, 0x1 Items)
T4C94 000:509.901   CPU_ReadMem(4 bytes @ 0xE000ED00)
T4C94 000:510.157   Data:  00 C2 0C 41
T4C94 000:510.174   Debug reg: CPUID
T4C94 000:510.185 - 0.302ms returns 1 (0x1)
T4C94 000:510.198 JLINK_GetDebugInfo(0x10F = JLINKARM_DEBUG_INFO_HAS_CORTEX_M_SECURITY_EXT_INDEX)
T4C94 000:510.206   Value=0x00000000
T4C94 000:510.217 - 0.023ms returns 0
T4C94 000:510.228 JLINK_HasError()
T4C94 000:510.239 JLINK_SetResetType(JLINKARM_CM3_RESET_TYPE_NORMAL)
T4C94 000:510.247 - 0.012ms returns JLINKARM_CM3_RESET_TYPE_NORMAL
T4C94 000:510.257 JLINK_Reset()
T4C94 000:510.285   CPU is running
T4C94 000:510.300   CPU_WriteMem(4 bytes @ 0xE000EDF0)
T4C94 000:510.554   CPU is running
T4C94 000:510.572   CPU_WriteMem(4 bytes @ 0xE000EDFC)
T4C94 000:515.192   Reset: Halt core after reset via DEMCR.VC_CORERESET.
T4C94 000:524.503   Reset: Reset device via AIRCR.SYSRESETREQ.
T4C94 000:524.537   CPU is running
T4C94 000:524.553   CPU_WriteMem(4 bytes @ 0xE000ED0C)
T4C94 000:577.427   CPU_ReadMem(4 bytes @ 0xE000EDF0)
T4C94 000:577.708   CPU_ReadMem(4 bytes @ 0xE000EDF0)
T4C94 000:577.982   CPU is running
T4C94 000:578.001   CPU_WriteMem(4 bytes @ 0xE000EDF0)
T4C94 000:578.270   CPU is running
T4C94 000:578.290   CPU_WriteMem(4 bytes @ 0xE000EDFC)
T4C94 000:584.060   CPU_ReadMem(4 bytes @ 0xE000EDF0)
T4C94 000:586.212   CPU_WriteMem(4 bytes @ 0xE0002000)
T4C94 000:586.538   CPU_ReadMem(4 bytes @ 0xE000EDFC)
T4C94 000:586.803   CPU_ReadMem(4 bytes @ 0xE0001000)
T4C94 000:587.113   CPU_WriteMem(4 bytes @ 0xE0001000)
T4C94 000:587.384 - 77.135ms
T4C94 000:587.408 JLINK_Halt()
T4C94 000:587.417 - 0.012ms returns 0x00
T4C94 000:587.431 JLINK_ReadMemU32(0xE000EDF0, 0x1 Items)
T4C94 000:587.448   CPU_ReadMem(4 bytes @ 0xE000EDF0)
T4C94 000:587.704   Data:  03 00 03 00
T4C94 000:587.721   Debug reg: DHCSR
T4C94 000:587.732 - 0.304ms returns 1 (0x1)
T4C94 000:587.787 JLINK_WriteU32_64(0xE000EDF0, 0xA05F0003)
T4C94 000:587.804   Debug reg: DHCSR
T4C94 000:588.106   CPU_WriteMem(4 bytes @ 0xE000EDF0)
T4C94 000:588.364 - 0.586ms returns 0 (0x00000000)
T4C94 000:588.382 JLINK_WriteU32_64(0xE000EDFC, 0x01000000)
T4C94 000:588.391   Debug reg: DEMCR
T4C94 000:588.409   CPU_WriteMem(4 bytes @ 0xE000EDFC)
T4C94 000:588.670 - 0.298ms returns 0 (0x00000000)
T4C94 000:612.979 JLINK_GetHWStatus(...)
T4C94 000:613.183 - 0.221ms returns 0
T4C94 000:630.236 JLINK_GetNumBPUnits(Type = 0xFFFFFF00)
T4C94 000:630.260 - 0.028ms returns 0x04
T4C94 000:630.271 JLINK_GetNumBPUnits(Type = 0xF0)
T4C94 000:630.280 - 0.012ms returns 0x2000
T4C94 000:630.290 JLINK_GetNumWPUnits()
T4C94 000:630.298 - 0.011ms returns 2
T4C94 000:644.301 JLINK_GetSpeed()
T4C94 000:644.322 - 0.026ms returns 4000
T4C94 000:653.561 JLINK_ReadMemU32(0xE000E004, 0x1 Items)
T4C94 000:653.605   CPU_ReadMem(4 bytes @ 0xE000E004)
T4C94 000:653.922   Data:  00 00 00 00
T4C94 000:653.940 - 0.383ms returns 1 (0x1)
T4C94 000:653.958 JLINK_Halt()
T4C94 000:653.967 - 0.012ms returns 0x00
T4C94 000:653.977 JLINK_IsHalted()
T4C94 000:653.986 - 0.012ms returns TRUE
T4C94 000:659.260 JLINK_WriteMem(0x20000000, 0x170 Bytes, ...)
T4C94 000:659.286   Data:  00 BE 0A E0 0D 78 2D 06 68 40 08 24 40 00 00 D3 ...
T4C94 000:659.671   CPU_WriteMem(368 bytes @ 0x20000000)
T4C94 000:661.243 - 1.997ms returns 0x170
T4C94 000:661.295 JLINK_HasError()
T4C94 000:661.308 JLINK_WriteReg(R0, 0x08000000)
T4C94 000:661.325 - 0.022ms returns 0
T4C94 000:661.336 JLINK_WriteReg(R1, 0x007A1200)
T4C94 000:661.345 - 0.013ms returns 0
T4C94 000:661.356 JLINK_WriteReg(R2, 0x00000001)
T4C94 000:661.364 - 0.012ms returns 0
T4C94 000:661.374 JLINK_WriteReg(R3, 0x00000000)
T4C94 000:661.382 - 0.012ms returns 0
T4C94 000:661.393 JLINK_WriteReg(R4, 0x00000000)
T4C94 000:661.401 - 0.012ms returns 0
T4C94 000:661.411 JLINK_WriteReg(R5, 0x00000000)
T4C94 000:661.419 - 0.012ms returns 0
T4C94 000:661.429 JLINK_WriteReg(R6, 0x00000000)
T4C94 000:661.438 - 0.012ms returns 0
T4C94 000:661.448 JLINK_WriteReg(R7, 0x00000000)
T4C94 000:661.456 - 0.012ms returns 0
T4C94 000:661.466 JLINK_WriteReg(R8, 0x00000000)
T4C94 000:661.485 - 0.023ms returns 0
T4C94 000:661.495 JLINK_WriteReg(R9, 0x2000016C)
T4C94 000:661.504 - 0.012ms returns 0
T4C94 000:661.514 JLINK_WriteReg(R10, 0x00000000)
T4C94 000:661.522 - 0.012ms returns 0
T4C94 000:661.532 JLINK_WriteReg(R11, 0x00000000)
T4C94 000:661.541 - 0.012ms returns 0
T4C94 000:661.551 JLINK_WriteReg(R12, 0x00000000)
T4C94 000:661.560 - 0.012ms returns 0
T4C94 000:661.569 JLINK_WriteReg(R13 (SP), 0x20001000)
T4C94 000:661.579 - 0.013ms returns 0
T4C94 000:661.589 JLINK_WriteReg(R14, 0x20000001)
T4C94 000:661.597 - 0.012ms returns 0
T4C94 000:661.607 JLINK_WriteReg(R15 (PC), 0x20000038)
T4C94 000:661.616 - 0.012ms returns 0
T4C94 000:661.626 JLINK_WriteReg(XPSR, 0x01000000)
T4C94 000:661.635 - 0.012ms returns 0
T4C94 000:661.645 JLINK_WriteReg(MSP, 0x20001000)
T4C94 000:661.653 - 0.012ms returns 0
T4C94 000:661.663 JLINK_WriteReg(PSP, 0x20001000)
T4C94 000:661.674 - 0.015ms returns 0
T4C94 000:661.685 JLINK_WriteReg(CFBP, 0x00000000)
T4C94 000:661.693 - 0.012ms returns 0
T4C94 000:661.707 JLINK_SetBPEx(Addr = 0x20000000, Type = 0xFFFFFFF2)
T4C94 000:661.724   CPU_ReadMem(2 bytes @ 0x20000000)
T4C94 000:662.008 - 0.310ms returns 0x00000001
T4C94 000:662.028 JLINK_Go()
T4C94 000:662.044   CPU_WriteMem(2 bytes @ 0x20000000)
T4C94 000:662.330   CPU_ReadMem(4 bytes @ 0xE0001000)
T4C94 000:662.595   CPU_WriteMem(4 bytes @ 0xE0001000)
T4C94 000:662.875   CPU_WriteMem(4 bytes @ 0xE0002008)
T4C94 000:662.908   CPU_WriteMem(4 bytes @ 0xE000200C)
T4C94 000:662.922   CPU_WriteMem(4 bytes @ 0xE0002010)
T4C94 000:662.934   CPU_WriteMem(4 bytes @ 0xE0002014)
T4C94 000:663.728   CPU_WriteMem(4 bytes @ 0xE0001004)
T4C94 000:665.714 - 3.697ms
T4C94 000:665.741 JLINK_IsHalted()
T4C94 000:667.583   CPU_ReadMem(2 bytes @ 0x20000000)
T4C94 000:667.899 - 2.171ms returns TRUE
T4C94 000:667.929 JLINK_ReadReg(R15 (PC))
T4C94 000:667.943 - 0.018ms returns 0x20000000
T4C94 000:667.956 JLINK_ClrBPEx(BPHandle = 0x00000001)
T4C94 000:667.966 - 0.013ms returns 0x00
T4C94 000:667.979 JLINK_ReadReg(R0)
T4C94 000:667.988 - 0.013ms returns 0x00000000
T4C94 000:668.485 JLINK_HasError()
T4C94 000:668.504 JLINK_WriteReg(R0, 0x08000000)
T4C94 000:668.516 - 0.016ms returns 0
T4C94 000:668.527 JLINK_WriteReg(R1, 0x007A1200)
T4C94 000:668.535 - 0.012ms returns 0
T4C94 000:668.546 JLINK_WriteReg(R2, 0x00000001)
T4C94 000:668.554 - 0.012ms returns 0
T4C94 000:668.564 JLINK_WriteReg(R3, 0x00000000)
T4C94 000:668.572 - 0.012ms returns 0
T4C94 000:668.582 JLINK_WriteReg(R4, 0x00000000)
T4C94 000:668.595 - 0.016ms returns 0
T4C94 000:668.605 JLINK_WriteReg(R5, 0x00000000)
T4C94 000:668.613 - 0.012ms returns 0
T4C94 000:668.623 JLINK_WriteReg(R6, 0x00000000)
T4C94 000:668.632 - 0.012ms returns 0
T4C94 000:668.642 JLINK_WriteReg(R7, 0x00000000)
T4C94 000:668.650 - 0.012ms returns 0
T4C94 000:668.660 JLINK_WriteReg(R8, 0x00000000)
T4C94 000:668.668 - 0.012ms returns 0
T4C94 000:668.678 JLINK_WriteReg(R9, 0x2000016C)
T4C94 000:668.687 - 0.012ms returns 0
T4C94 000:668.699 JLINK_WriteReg(R10, 0x00000000)
T4C94 000:668.707 - 0.013ms returns 0
T4C94 000:668.718 JLINK_WriteReg(R11, 0x00000000)
T4C94 000:668.727 - 0.012ms returns 0
T4C94 000:668.737 JLINK_WriteReg(R12, 0x00000000)
T4C94 000:668.745 - 0.012ms returns 0
T4C94 000:668.755 JLINK_WriteReg(R13 (SP), 0x20001000)
T4C94 000:668.764 - 0.013ms returns 0
T4C94 000:668.775 JLINK_WriteReg(R14, 0x20000001)
T4C94 000:668.783 - 0.013ms returns 0
T4C94 000:668.794 JLINK_WriteReg(R15 (PC), 0x20000074)
T4C94 000:668.802 - 0.012ms returns 0
T4C94 000:668.813 JLINK_WriteReg(XPSR, 0x01000000)
T4C94 000:668.821 - 0.013ms returns 0
T4C94 000:668.832 JLINK_WriteReg(MSP, 0x20001000)
T4C94 000:668.841 - 0.013ms returns 0
T4C94 000:668.852 JLINK_WriteReg(PSP, 0x20001000)
T4C94 000:668.860 - 0.012ms returns 0
T4C94 000:668.870 JLINK_WriteReg(CFBP, 0x00000000)
T4C94 000:668.879 - 0.012ms returns 0
T4C94 000:668.890 JLINK_SetBPEx(Addr = 0x20000000, Type = 0xFFFFFFF2)
T4C94 000:668.900 - 0.014ms returns 0x00000002
T4C94 000:668.910 JLINK_Go()
T4C94 000:668.931   CPU_ReadMem(4 bytes @ 0xE0001000)
T4C94 000:671.105 - 2.209ms
T4C94 000:671.134 JLINK_IsHalted()
T4C94 000:671.374 - 0.248ms returns FALSE
T4C94 000:671.392 JLINK_HasError()
T4C94 000:698.046 JLINK_IsHalted()
T4C94 000:699.832   CPU_ReadMem(2 bytes @ 0x20000000)
T4C94 000:700.112 - 2.076ms returns TRUE
T4C94 000:700.133 JLINK_ReadReg(R15 (PC))
T4C94 000:700.145 - 0.016ms returns 0x20000000
T4C94 000:700.157 JLINK_ClrBPEx(BPHandle = 0x00000002)
T4C94 000:700.168 - 0.015ms returns 0x00
T4C94 000:700.179 JLINK_ReadReg(R0)
T4C94 000:700.187 - 0.012ms returns 0x00000000
T4C94 000:752.955 JLINK_HasError()
T4C94 000:752.989 JLINK_WriteReg(R0, 0x00000001)
T4C94 000:753.005 - 0.019ms returns 0
T4C94 000:753.016 JLINK_WriteReg(R1, 0x007A1200)
T4C94 000:753.024 - 0.012ms returns 0
T4C94 000:753.053 JLINK_WriteReg(R2, 0x00000001)
T4C94 000:753.062 - 0.013ms returns 0
T4C94 000:753.072 JLINK_WriteReg(R3, 0x00000000)
T4C94 000:753.081 - 0.012ms returns 0
T4C94 000:753.091 JLINK_WriteReg(R4, 0x00000000)
T4C94 000:753.166 - 0.083ms returns 0
T4C94 000:753.182 JLINK_WriteReg(R5, 0x00000000)
T4C94 000:753.191 - 0.012ms returns 0
T4C94 000:753.201 JLINK_WriteReg(R6, 0x00000000)
T4C94 000:753.209 - 0.012ms returns 0
T4C94 000:753.219 JLINK_WriteReg(R7, 0x00000000)
T4C94 000:753.227 - 0.012ms returns 0
T4C94 000:753.237 JLINK_WriteReg(R8, 0x00000000)
T4C94 000:753.246 - 0.012ms returns 0
T4C94 000:753.256 JLINK_WriteReg(R9, 0x2000016C)
T4C94 000:753.264 - 0.012ms returns 0
T4C94 000:753.274 JLINK_WriteReg(R10, 0x00000000)
T4C94 000:753.282 - 0.012ms returns 0
T4C94 000:753.292 JLINK_WriteReg(R11, 0x00000000)
T4C94 000:753.301 - 0.012ms returns 0
T4C94 000:753.311 JLINK_WriteReg(R12, 0x00000000)
T4C94 000:753.319 - 0.012ms returns 0
T4C94 000:753.329 JLINK_WriteReg(R13 (SP), 0x20001000)
T4C94 000:753.338 - 0.013ms returns 0
T4C94 000:753.348 JLINK_WriteReg(R14, 0x20000001)
T4C94 000:753.357 - 0.012ms returns 0
T4C94 000:753.367 JLINK_WriteReg(R15 (PC), 0x20000066)
T4C94 000:753.375 - 0.012ms returns 0
T4C94 000:753.385 JLINK_WriteReg(XPSR, 0x01000000)
T4C94 000:753.394 - 0.012ms returns 0
T4C94 000:753.404 JLINK_WriteReg(MSP, 0x20001000)
T4C94 000:753.412 - 0.012ms returns 0
T4C94 000:753.422 JLINK_WriteReg(PSP, 0x20001000)
T4C94 000:753.430 - 0.012ms returns 0
T4C94 000:753.440 JLINK_WriteReg(CFBP, 0x00000000)
T4C94 000:753.449 - 0.012ms returns 0
T4C94 000:753.462 JLINK_SetBPEx(Addr = 0x20000000, Type = 0xFFFFFFF2)
T4C94 000:753.474 - 0.016ms returns 0x00000003
T4C94 000:753.485 JLINK_Go()
T4C94 000:753.505   CPU_ReadMem(4 bytes @ 0xE0001000)
T4C94 000:755.526 - 2.054ms
T4C94 000:755.550 JLINK_IsHalted()
T4C94 000:757.303   CPU_ReadMem(2 bytes @ 0x20000000)
T4C94 000:757.581 - 2.039ms returns TRUE
T4C94 000:757.599 JLINK_ReadReg(R15 (PC))
T4C94 000:757.611 - 0.015ms returns 0x20000000
T4C94 000:757.622 JLINK_ClrBPEx(BPHandle = 0x00000003)
T4C94 000:757.631 - 0.013ms returns 0x00
T4C94 000:757.641 JLINK_ReadReg(R0)
T4C94 000:757.650 - 0.012ms returns 0x00000000
T4C94 000:766.541 JLINK_WriteMem(0x20000000, 0x170 Bytes, ...)
T4C94 000:766.609   Data:  00 BE 0A E0 0D 78 2D 06 68 40 08 24 40 00 00 D3 ...
T4C94 000:766.643   CPU_WriteMem(368 bytes @ 0x20000000)
T4C94 000:768.224 - 1.719ms returns 0x170
T4C94 000:768.299 JLINK_HasError()
T4C94 000:768.313 JLINK_WriteReg(R0, 0x08000000)
T4C94 000:768.328 - 0.018ms returns 0
T4C94 000:768.338 JLINK_WriteReg(R1, 0x007A1200)
T4C94 000:768.347 - 0.013ms returns 0
T4C94 000:768.357 JLINK_WriteReg(R2, 0x00000002)
T4C94 000:768.366 - 0.012ms returns 0
T4C94 000:768.376 JLINK_WriteReg(R3, 0x00000000)
T4C94 000:768.385 - 0.012ms returns 0
T4C94 000:768.395 JLINK_WriteReg(R4, 0x00000000)
T4C94 000:768.403 - 0.012ms returns 0
T4C94 000:768.413 JLINK_WriteReg(R5, 0x00000000)
T4C94 000:768.421 - 0.012ms returns 0
T4C94 000:768.431 JLINK_WriteReg(R6, 0x00000000)
T4C94 000:768.440 - 0.012ms returns 0
T4C94 000:768.450 JLINK_WriteReg(R7, 0x00000000)
T4C94 000:768.458 - 0.012ms returns 0
T4C94 000:768.468 JLINK_WriteReg(R8, 0x00000000)
T4C94 000:768.477 - 0.012ms returns 0
T4C94 000:768.487 JLINK_WriteReg(R9, 0x2000016C)
T4C94 000:768.495 - 0.012ms returns 0
T4C94 000:768.505 JLINK_WriteReg(R10, 0x00000000)
T4C94 000:768.514 - 0.013ms returns 0
T4C94 000:768.525 JLINK_WriteReg(R11, 0x00000000)
T4C94 000:768.533 - 0.012ms returns 0
T4C94 000:768.543 JLINK_WriteReg(R12, 0x00000000)
T4C94 000:768.551 - 0.012ms returns 0
T4C94 000:768.562 JLINK_WriteReg(R13 (SP), 0x20001000)
T4C94 000:768.571 - 0.013ms returns 0
T4C94 000:768.581 JLINK_WriteReg(R14, 0x20000001)
T4C94 000:768.590 - 0.012ms returns 0
T4C94 000:768.600 JLINK_WriteReg(R15 (PC), 0x20000038)
T4C94 000:768.609 - 0.013ms returns 0
T4C94 000:768.619 JLINK_WriteReg(XPSR, 0x01000000)
T4C94 000:768.628 - 0.012ms returns 0
T4C94 000:768.638 JLINK_WriteReg(MSP, 0x20001000)
T4C94 000:768.647 - 0.013ms returns 0
T4C94 000:768.657 JLINK_WriteReg(PSP, 0x20001000)
T4C94 000:768.666 - 0.012ms returns 0
T4C94 000:768.678 JLINK_WriteReg(CFBP, 0x00000000)
T4C94 000:768.693 - 0.022ms returns 0
T4C94 000:768.707 JLINK_SetBPEx(Addr = 0x20000000, Type = 0xFFFFFFF2)
T4C94 000:768.723   CPU_ReadMem(2 bytes @ 0x20000000)
T4C94 000:769.148 - 0.456ms returns 0x00000004
T4C94 000:769.175 JLINK_Go()
T4C94 000:769.189   CPU_WriteMem(2 bytes @ 0x20000000)
T4C94 000:769.466   CPU_ReadMem(4 bytes @ 0xE0001000)
T4C94 000:771.440 - 2.276ms
T4C94 000:771.466 JLINK_IsHalted()
T4C94 000:773.228   CPU_ReadMem(2 bytes @ 0x20000000)
T4C94 000:773.483 - 2.026ms returns TRUE
T4C94 000:773.506 JLINK_ReadReg(R15 (PC))
T4C94 000:773.518 - 0.016ms returns 0x20000000
T4C94 000:773.532 JLINK_ClrBPEx(BPHandle = 0x00000004)
T4C94 000:773.541 - 0.013ms returns 0x00
T4C94 000:773.554 JLINK_ReadReg(R0)
T4C94 000:773.563 - 0.013ms returns 0x00000000
T4C94 000:773.979 JLINK_WriteMem(0x20000170, 0x290 Bytes, ...)
T4C94 000:773.993   Data:  D0 0C 00 20 C9 00 00 08 31 2C 00 08 61 25 00 08 ...
T4C94 000:774.014   CPU_WriteMem(656 bytes @ 0x20000170)
T4C94 000:776.409 - 2.441ms returns 0x290
T4C94 000:776.435 JLINK_WriteMem(0x20000400, 0x170 Bytes, ...)
T4C94 000:776.444   Data:  10 BD 10 B5 40 6A 00 F0 98 F9 10 BD F8 B5 04 46 ...
T4C94 000:776.465   CPU_WriteMem(368 bytes @ 0x20000400)
T4C94 000:778.011 - 1.585ms returns 0x170
T4C94 000:778.029 JLINK_HasError()
T4C94 000:778.044 JLINK_WriteReg(R0, 0x08000000)
T4C94 000:778.056 - 0.016ms returns 0
T4C94 000:778.067 JLINK_WriteReg(R1, 0x00000400)
T4C94 000:778.075 - 0.012ms returns 0
T4C94 000:778.085 JLINK_WriteReg(R2, 0x20000170)
T4C94 000:778.093 - 0.012ms returns 0
T4C94 000:778.104 JLINK_WriteReg(R3, 0x00000000)
T4C94 000:778.112 - 0.012ms returns 0
T4C94 000:778.122 JLINK_WriteReg(R4, 0x00000000)
T4C94 000:778.130 - 0.012ms returns 0
T4C94 000:778.140 JLINK_WriteReg(R5, 0x00000000)
T4C94 000:778.149 - 0.012ms returns 0
T4C94 000:778.159 JLINK_WriteReg(R6, 0x00000000)
T4C94 000:778.167 - 0.012ms returns 0
T4C94 000:778.177 JLINK_WriteReg(R7, 0x00000000)
T4C94 000:778.185 - 0.012ms returns 0
T4C94 000:778.195 JLINK_WriteReg(R8, 0x00000000)
T4C94 000:778.203 - 0.012ms returns 0
T4C94 000:778.213 JLINK_WriteReg(R9, 0x2000016C)
T4C94 000:778.222 - 0.012ms returns 0
T4C94 000:778.232 JLINK_WriteReg(R10, 0x00000000)
T4C94 000:778.240 - 0.012ms returns 0
T4C94 000:778.250 JLINK_WriteReg(R11, 0x00000000)
T4C94 000:778.258 - 0.012ms returns 0
T4C94 000:778.268 JLINK_WriteReg(R12, 0x00000000)
T4C94 000:778.276 - 0.012ms returns 0
T4C94 000:778.286 JLINK_WriteReg(R13 (SP), 0x20001000)
T4C94 000:778.296 - 0.013ms returns 0
T4C94 000:778.306 JLINK_WriteReg(R14, 0x20000001)
T4C94 000:778.314 - 0.012ms returns 0
T4C94 000:778.324 JLINK_WriteReg(R15 (PC), 0x200000FA)
T4C94 000:778.333 - 0.012ms returns 0
T4C94 000:778.343 JLINK_WriteReg(XPSR, 0x01000000)
T4C94 000:778.351 - 0.012ms returns 0
T4C94 000:778.361 JLINK_WriteReg(MSP, 0x20001000)
T4C94 000:778.369 - 0.012ms returns 0
T4C94 000:778.379 JLINK_WriteReg(PSP, 0x20001000)
T4C94 000:778.388 - 0.012ms returns 0
T4C94 000:778.398 JLINK_WriteReg(CFBP, 0x00000000)
T4C94 000:778.406 - 0.012ms returns 0
T4C94 000:778.416 JLINK_SetBPEx(Addr = 0x20000000, Type = 0xFFFFFFF2)
T4C94 000:778.426 - 0.013ms returns 0x00000005
T4C94 000:778.436 JLINK_Go()
T4C94 000:778.451   CPU_ReadMem(4 bytes @ 0xE0001000)
T4C94 000:780.418 - 1.992ms
T4C94 000:780.438 JLINK_IsHalted()
T4C94 000:780.689 - 0.261ms returns FALSE
T4C94 000:780.709 JLINK_HasError()
T4C94 000:793.081 JLINK_IsHalted()
T4C94 000:793.368 - 0.300ms returns FALSE
T4C94 000:793.391 JLINK_HasError()
T4C94 000:795.048 JLINK_IsHalted()
T4C94 000:795.308 - 0.269ms returns FALSE
T4C94 000:795.326 JLINK_HasError()
T4C94 000:797.046 JLINK_IsHalted()
T4C94 000:797.295 - 0.257ms returns FALSE
T4C94 000:797.312 JLINK_HasError()
T4C94 000:799.050 JLINK_IsHalted()
T4C94 000:799.309 - 0.268ms returns FALSE
T4C94 000:799.329 JLINK_HasError()
T4C94 000:801.077 JLINK_IsHalted()
T4C94 000:801.370 - 0.306ms returns FALSE
T4C94 000:801.394 JLINK_HasError()
T4C94 000:803.052 JLINK_IsHalted()
T4C94 000:803.363 - 0.325ms returns FALSE
T4C94 000:803.390 JLINK_HasError()
T4C94 000:805.047 JLINK_IsHalted()
T4C94 000:805.301 - 0.263ms returns FALSE
T4C94 000:805.319 JLINK_HasError()
T4C94 000:807.062 JLINK_IsHalted()
T4C94 000:807.319 - 0.267ms returns FALSE
T4C94 000:807.338 JLINK_HasError()
T4C94 000:809.049 JLINK_IsHalted()
T4C94 000:809.301 - 0.260ms returns FALSE
T4C94 000:809.318 JLINK_HasError()
T4C94 000:811.047 JLINK_IsHalted()
T4C94 000:812.814   CPU_ReadMem(2 bytes @ 0x20000000)
T4C94 000:813.110 - 2.073ms returns TRUE
T4C94 000:813.130 JLINK_ReadReg(R15 (PC))
T4C94 000:813.142 - 0.016ms returns 0x20000000
T4C94 000:813.153 JLINK_ClrBPEx(BPHandle = 0x00000005)
T4C94 000:813.162 - 0.013ms returns 0x00
T4C94 000:813.172 JLINK_ReadReg(R0)
T4C94 000:813.181 - 0.012ms returns 0x00000000
T4C94 000:813.821 JLINK_WriteMem(0x20000170, 0x290 Bytes, ...)
T4C94 000:813.835   Data:  AB FF 10 BD D8 03 00 20 C7 4B 00 08 52 54 4B 32 ...
T4C94 000:813.856   CPU_WriteMem(656 bytes @ 0x20000170)
T4C94 000:816.233 - 2.423ms returns 0x290
T4C94 000:816.256 JLINK_WriteMem(0x20000400, 0x170 Bytes, ...)
T4C94 000:816.266   Data:  05 60 20 46 FF F7 9A FF 20 68 05 60 70 BD 00 00 ...
T4C94 000:816.285   CPU_WriteMem(368 bytes @ 0x20000400)
T4C94 000:817.847 - 1.606ms returns 0x170
T4C94 000:817.879 JLINK_HasError()
T4C94 000:817.893 JLINK_WriteReg(R0, 0x08000400)
T4C94 000:817.908 - 0.020ms returns 0
T4C94 000:817.920 JLINK_WriteReg(R1, 0x00000400)
T4C94 000:817.929 - 0.014ms returns 0
T4C94 000:817.940 JLINK_WriteReg(R2, 0x20000170)
T4C94 000:817.949 - 0.013ms returns 0
T4C94 000:817.960 JLINK_WriteReg(R3, 0x00000000)
T4C94 000:817.969 - 0.013ms returns 0
T4C94 000:817.980 JLINK_WriteReg(R4, 0x00000000)
T4C94 000:817.989 - 0.013ms returns 0
T4C94 000:817.999 JLINK_WriteReg(R5, 0x00000000)
T4C94 000:818.009 - 0.014ms returns 0
T4C94 000:818.020 JLINK_WriteReg(R6, 0x00000000)
T4C94 000:818.029 - 0.013ms returns 0
T4C94 000:818.043 JLINK_WriteReg(R7, 0x00000000)
T4C94 000:818.052 - 0.013ms returns 0
T4C94 000:818.063 JLINK_WriteReg(R8, 0x00000000)
T4C94 000:818.072 - 0.013ms returns 0
T4C94 000:818.083 JLINK_WriteReg(R9, 0x2000016C)
T4C94 000:818.092 - 0.013ms returns 0
T4C94 000:818.102 JLINK_WriteReg(R10, 0x00000000)
T4C94 000:818.111 - 0.012ms returns 0
T4C94 000:818.121 JLINK_WriteReg(R11, 0x00000000)
T4C94 000:818.130 - 0.013ms returns 0
T4C94 000:818.141 JLINK_WriteReg(R12, 0x00000000)
T4C94 000:818.149 - 0.012ms returns 0
T4C94 000:818.159 JLINK_WriteReg(R13 (SP), 0x20001000)
T4C94 000:818.169 - 0.013ms returns 0
T4C94 000:818.179 JLINK_WriteReg(R14, 0x20000001)
T4C94 000:818.187 - 0.012ms returns 0
T4C94 000:818.197 JLINK_WriteReg(R15 (PC), 0x200000FA)
T4C94 000:818.206 - 0.013ms returns 0
T4C94 000:818.217 JLINK_WriteReg(XPSR, 0x01000000)
T4C94 000:818.225 - 0.012ms returns 0
T4C94 000:818.235 JLINK_WriteReg(MSP, 0x20001000)
T4C94 000:818.244 - 0.012ms returns 0
T4C94 000:818.254 JLINK_WriteReg(PSP, 0x20001000)
T4C94 000:818.263 - 0.012ms returns 0
T4C94 000:818.273 JLINK_WriteReg(CFBP, 0x00000000)
T4C94 000:818.284 - 0.014ms returns 0
T4C94 000:818.295 JLINK_SetBPEx(Addr = 0x20000000, Type = 0xFFFFFFF2)
T4C94 000:818.305 - 0.014ms returns 0x00000006
T4C94 000:818.316 JLINK_Go()
T4C94 000:818.334   CPU_ReadMem(4 bytes @ 0xE0001000)
T4C94 000:820.379 - 2.078ms
T4C94 000:820.405 JLINK_IsHalted()
T4C94 000:820.651 - 0.255ms returns FALSE
T4C94 000:820.670 JLINK_HasError()
T4C94 000:822.062 JLINK_IsHalted()
T4C94 000:822.348 - 0.296ms returns FALSE
T4C94 000:822.368 JLINK_HasError()
T4C94 000:824.049 JLINK_IsHalted()
T4C94 000:824.320 - 0.282ms returns FALSE
T4C94 000:824.341 JLINK_HasError()
T4C94 000:826.043 JLINK_IsHalted()
T4C94 000:826.304 - 0.271ms returns FALSE
T4C94 000:826.324 JLINK_HasError()
T4C94 000:828.058 JLINK_IsHalted()
T4C94 000:828.329 - 0.281ms returns FALSE
T4C94 000:828.348 JLINK_HasError()
T4C94 000:832.057 JLINK_IsHalted()
T4C94 000:832.341 - 0.295ms returns FALSE
T4C94 000:832.362 JLINK_HasError()
T4C94 000:834.064 JLINK_IsHalted()
T4C94 000:834.364 - 0.314ms returns FALSE
T4C94 000:834.389 JLINK_HasError()
T4C94 000:836.072 JLINK_IsHalted()
T4C94 000:836.362 - 0.301ms returns FALSE
T4C94 000:836.383 JLINK_HasError()
T4C94 000:838.048 JLINK_IsHalted()
T4C94 000:838.316 - 0.277ms returns FALSE
T4C94 000:838.335 JLINK_HasError()
T4C94 000:840.046 JLINK_IsHalted()
T4C94 000:840.326 - 0.290ms returns FALSE
T4C94 000:840.347 JLINK_HasError()
T4C94 000:842.048 JLINK_IsHalted()
T4C94 000:842.318 - 0.280ms returns FALSE
T4C94 000:842.338 JLINK_HasError()
T4C94 000:844.051 JLINK_IsHalted()
T4C94 000:844.317 - 0.275ms returns FALSE
T4C94 000:844.336 JLINK_HasError()
T4C94 000:846.060 JLINK_IsHalted()
T4C94 000:846.341 - 0.291ms returns FALSE
T4C94 000:846.361 JLINK_HasError()
T4C94 000:849.049 JLINK_IsHalted()
T4C94 000:849.319 - 0.280ms returns FALSE
T4C94 000:849.343 JLINK_HasError()
T4C94 000:851.060 JLINK_IsHalted()
T4C94 000:852.919   CPU_ReadMem(2 bytes @ 0x20000000)
T4C94 000:853.263 - 2.218ms returns TRUE
T4C94 000:853.290 JLINK_ReadReg(R15 (PC))
T4C94 000:853.303 - 0.018ms returns 0x20000000
T4C94 000:853.314 JLINK_ClrBPEx(BPHandle = 0x00000006)
T4C94 000:853.324 - 0.013ms returns 0x00
T4C94 000:853.335 JLINK_ReadReg(R0)
T4C94 000:853.344 - 0.013ms returns 0x00000000
T4C94 000:854.518 JLINK_WriteMem(0x20000170, 0x290 Bytes, ...)
T4C94 000:854.537   Data:  01 26 30 46 F8 BD A0 6B 10 43 A0 63 F8 E7 00 00 ...
T4C94 000:854.563   CPU_WriteMem(656 bytes @ 0x20000170)
T4C94 000:857.013 - 2.508ms returns 0x290
T4C94 000:857.126 JLINK_WriteMem(0x20000400, 0x170 Bytes, ...)
T4C94 000:857.141   Data:  0F C0 FF FF F8 B5 04 46 8C 46 20 30 01 78 00 25 ...
T4C94 000:857.167   CPU_WriteMem(368 bytes @ 0x20000400)
T4C94 000:858.721 - 1.609ms returns 0x170
T4C94 000:858.748 JLINK_HasError()
T4C94 000:858.760 JLINK_WriteReg(R0, 0x08000800)
T4C94 000:858.774 - 0.018ms returns 0
T4C94 000:858.785 JLINK_WriteReg(R1, 0x00000400)
T4C94 000:858.795 - 0.013ms returns 0
T4C94 000:858.805 JLINK_WriteReg(R2, 0x20000170)
T4C94 000:858.814 - 0.013ms returns 0
T4C94 000:858.824 JLINK_WriteReg(R3, 0x00000000)
T4C94 000:858.833 - 0.012ms returns 0
T4C94 000:858.843 JLINK_WriteReg(R4, 0x00000000)
T4C94 000:858.852 - 0.012ms returns 0
T4C94 000:858.862 JLINK_WriteReg(R5, 0x00000000)
T4C94 000:858.871 - 0.013ms returns 0
T4C94 000:858.881 JLINK_WriteReg(R6, 0x00000000)
T4C94 000:858.890 - 0.012ms returns 0
T4C94 000:858.900 JLINK_WriteReg(R7, 0x00000000)
T4C94 000:858.908 - 0.012ms returns 0
T4C94 000:858.919 JLINK_WriteReg(R8, 0x00000000)
T4C94 000:858.927 - 0.012ms returns 0
T4C94 000:858.937 JLINK_WriteReg(R9, 0x2000016C)
T4C94 000:858.946 - 0.013ms returns 0
T4C94 000:858.956 JLINK_WriteReg(R10, 0x00000000)
T4C94 000:858.965 - 0.012ms returns 0
T4C94 000:858.975 JLINK_WriteReg(R11, 0x00000000)
T4C94 000:858.984 - 0.012ms returns 0
T4C94 000:858.994 JLINK_WriteReg(R12, 0x00000000)
T4C94 000:859.003 - 0.012ms returns 0
T4C94 000:859.013 JLINK_WriteReg(R13 (SP), 0x20001000)
T4C94 000:859.023 - 0.013ms returns 0
T4C94 000:859.046 JLINK_WriteReg(R14, 0x20000001)
T4C94 000:859.056 - 0.013ms returns 0
T4C94 000:859.066 JLINK_WriteReg(R15 (PC), 0x200000FA)
T4C94 000:859.075 - 0.013ms returns 0
T4C94 000:859.085 JLINK_WriteReg(XPSR, 0x01000000)
T4C94 000:859.094 - 0.012ms returns 0
T4C94 000:859.104 JLINK_WriteReg(MSP, 0x20001000)
T4C94 000:859.112 - 0.012ms returns 0
T4C94 000:859.122 JLINK_WriteReg(PSP, 0x20001000)
T4C94 000:859.131 - 0.012ms returns 0
T4C94 000:859.141 JLINK_WriteReg(CFBP, 0x00000000)
T4C94 000:859.150 - 0.012ms returns 0
T4C94 000:859.161 JLINK_SetBPEx(Addr = 0x20000000, Type = 0xFFFFFFF2)
T4C94 000:859.171 - 0.014ms returns 0x00000007
T4C94 000:859.181 JLINK_Go()
T4C94 000:859.199   CPU_ReadMem(4 bytes @ 0xE0001000)
T4C94 000:861.262 - 2.092ms
T4C94 000:861.285 JLINK_IsHalted()
T4C94 000:861.534 - 0.259ms returns FALSE
T4C94 000:861.556 JLINK_HasError()
T4C94 000:863.052 JLINK_IsHalted()
T4C94 000:863.315 - 0.272ms returns FALSE
T4C94 000:863.334 JLINK_HasError()
T4C94 000:865.073 JLINK_IsHalted()
T4C94 000:865.360 - 0.297ms returns FALSE
T4C94 000:865.380 JLINK_HasError()
T4C94 000:867.058 JLINK_IsHalted()
T4C94 000:867.339 - 0.293ms returns FALSE
T4C94 000:867.362 JLINK_HasError()
T4C94 000:871.060 JLINK_IsHalted()
T4C94 000:871.344 - 0.294ms returns FALSE
T4C94 000:871.365 JLINK_HasError()
T4C94 000:873.052 JLINK_IsHalted()
T4C94 000:873.319 - 0.276ms returns FALSE
T4C94 000:873.339 JLINK_HasError()
T4C94 000:875.106 JLINK_IsHalted()
T4C94 000:875.410 - 0.317ms returns FALSE
T4C94 000:875.436 JLINK_HasError()
T4C94 000:877.052 JLINK_IsHalted()
T4C94 000:877.331 - 0.290ms returns FALSE
T4C94 000:877.353 JLINK_HasError()
T4C94 000:879.049 JLINK_IsHalted()
T4C94 000:879.328 - 0.289ms returns FALSE
T4C94 000:879.349 JLINK_HasError()
T4C94 000:881.057 JLINK_IsHalted()
T4C94 000:881.331 - 0.284ms returns FALSE
T4C94 000:881.351 JLINK_HasError()
T4C94 000:883.055 JLINK_IsHalted()
T4C94 000:883.334 - 0.290ms returns FALSE
T4C94 000:883.355 JLINK_HasError()
T4C94 000:885.072 JLINK_IsHalted()
T4C94 000:885.367 - 0.313ms returns FALSE
T4C94 000:885.397 JLINK_HasError()
T4C94 000:889.069 JLINK_IsHalted()
T4C94 000:889.369 - 0.310ms returns FALSE
T4C94 000:889.391 JLINK_HasError()
T4C94 000:891.067 JLINK_IsHalted()
T4C94 000:892.959   CPU_ReadMem(2 bytes @ 0x20000000)
T4C94 000:893.290 - 2.233ms returns TRUE
T4C94 000:893.374 JLINK_ReadReg(R15 (PC))
T4C94 000:893.399 - 0.029ms returns 0x20000000
T4C94 000:893.410 JLINK_ClrBPEx(BPHandle = 0x00000007)
T4C94 000:893.420 - 0.014ms returns 0x00
T4C94 000:893.431 JLINK_ReadReg(R0)
T4C94 000:893.440 - 0.013ms returns 0x00000000
T4C94 000:894.172 JLINK_WriteMem(0x20000170, 0x290 Bytes, ...)
T4C94 000:894.193   Data:  01 D0 02 2E 17 D1 86 68 27 46 B6 46 5E 00 B7 40 ...
T4C94 000:894.220   CPU_WriteMem(656 bytes @ 0x20000170)
T4C94 000:896.653 - 2.494ms returns 0x290
T4C94 000:896.677 JLINK_WriteMem(0x20000400, 0x170 Bytes, ...)
T4C94 000:896.687   Data:  29 60 00 68 01 68 21 43 01 60 20 20 50 70 00 20 ...
T4C94 000:896.711   CPU_WriteMem(368 bytes @ 0x20000400)
T4C94 000:898.271 - 1.607ms returns 0x170
T4C94 000:898.296 JLINK_HasError()
T4C94 000:898.308 JLINK_WriteReg(R0, 0x08000C00)
T4C94 000:898.322 - 0.018ms returns 0
T4C94 000:898.333 JLINK_WriteReg(R1, 0x00000400)
T4C94 000:898.341 - 0.012ms returns 0
T4C94 000:898.351 JLINK_WriteReg(R2, 0x20000170)
T4C94 000:898.360 - 0.012ms returns 0
T4C94 000:898.370 JLINK_WriteReg(R3, 0x00000000)
T4C94 000:898.378 - 0.012ms returns 0
T4C94 000:898.388 JLINK_WriteReg(R4, 0x00000000)
T4C94 000:898.396 - 0.012ms returns 0
T4C94 000:898.406 JLINK_WriteReg(R5, 0x00000000)
T4C94 000:898.415 - 0.012ms returns 0
T4C94 000:898.425 JLINK_WriteReg(R6, 0x00000000)
T4C94 000:898.433 - 0.012ms returns 0
T4C94 000:898.443 JLINK_WriteReg(R7, 0x00000000)
T4C94 000:898.451 - 0.012ms returns 0
T4C94 000:898.461 JLINK_WriteReg(R8, 0x00000000)
T4C94 000:898.469 - 0.012ms returns 0
T4C94 000:898.479 JLINK_WriteReg(R9, 0x2000016C)
T4C94 000:898.487 - 0.012ms returns 0
T4C94 000:898.497 JLINK_WriteReg(R10, 0x00000000)
T4C94 000:898.506 - 0.012ms returns 0
T4C94 000:898.516 JLINK_WriteReg(R11, 0x00000000)
T4C94 000:898.524 - 0.012ms returns 0
T4C94 000:898.534 JLINK_WriteReg(R12, 0x00000000)
T4C94 000:898.542 - 0.012ms returns 0
T4C94 000:898.552 JLINK_WriteReg(R13 (SP), 0x20001000)
T4C94 000:898.561 - 0.013ms returns 0
T4C94 000:898.571 JLINK_WriteReg(R14, 0x20000001)
T4C94 000:898.580 - 0.012ms returns 0
T4C94 000:898.590 JLINK_WriteReg(R15 (PC), 0x200000FA)
T4C94 000:898.598 - 0.012ms returns 0
T4C94 000:898.608 JLINK_WriteReg(XPSR, 0x01000000)
T4C94 000:898.617 - 0.012ms returns 0
T4C94 000:898.627 JLINK_WriteReg(MSP, 0x20001000)
T4C94 000:898.635 - 0.012ms returns 0
T4C94 000:898.645 JLINK_WriteReg(PSP, 0x20001000)
T4C94 000:898.653 - 0.012ms returns 0
T4C94 000:898.663 JLINK_WriteReg(CFBP, 0x00000000)
T4C94 000:898.671 - 0.012ms returns 0
T4C94 000:898.682 JLINK_SetBPEx(Addr = 0x20000000, Type = 0xFFFFFFF2)
T4C94 000:898.692 - 0.014ms returns 0x00000008
T4C94 000:898.706 JLINK_Go()
T4C94 000:898.731   CPU_ReadMem(4 bytes @ 0xE0001000)
T4C94 000:900.755 - 2.069ms
T4C94 000:900.791 JLINK_IsHalted()
T4C94 000:901.104 - 0.323ms returns FALSE
T4C94 000:901.128 JLINK_HasError()
T4C94 000:903.066 JLINK_IsHalted()
T4C94 000:903.361 - 0.305ms returns FALSE
T4C94 000:903.382 JLINK_HasError()
T4C94 000:906.069 JLINK_IsHalted()
T4C94 000:906.354 - 0.295ms returns FALSE
T4C94 000:906.374 JLINK_HasError()
T4C94 000:908.051 JLINK_IsHalted()
T4C94 000:908.332 - 0.293ms returns FALSE
T4C94 000:908.355 JLINK_HasError()
T4C94 000:911.056 JLINK_IsHalted()
T4C94 000:911.337 - 0.291ms returns FALSE
T4C94 000:911.357 JLINK_HasError()
T4C94 000:913.058 JLINK_IsHalted()
T4C94 000:913.341 - 0.294ms returns FALSE
T4C94 000:913.362 JLINK_HasError()
T4C94 000:915.052 JLINK_IsHalted()
T4C94 000:915.334 - 0.291ms returns FALSE
T4C94 000:915.354 JLINK_HasError()
T4C94 000:917.068 JLINK_IsHalted()
T4C94 000:917.356 - 0.301ms returns FALSE
T4C94 000:917.380 JLINK_HasError()
T4C94 000:920.055 JLINK_IsHalted()
T4C94 000:920.351 - 0.307ms returns FALSE
T4C94 000:920.373 JLINK_HasError()
T4C94 000:922.044 JLINK_IsHalted()
T4C94 000:922.302 - 0.266ms returns FALSE
T4C94 000:922.321 JLINK_HasError()
T4C94 000:924.059 JLINK_IsHalted()
T4C94 000:924.391 - 0.344ms returns FALSE
T4C94 000:924.414 JLINK_HasError()
T4C94 000:926.073 JLINK_IsHalted()
T4C94 000:926.352 - 0.289ms returns FALSE
T4C94 000:926.373 JLINK_HasError()
T4C94 000:929.052 JLINK_IsHalted()
T4C94 000:929.324 - 0.283ms returns FALSE
T4C94 000:929.345 JLINK_HasError()
T4C94 000:931.053 JLINK_IsHalted()
T4C94 000:932.847   CPU_ReadMem(2 bytes @ 0x20000000)
T4C94 000:933.135 - 2.093ms returns TRUE
T4C94 000:933.164 JLINK_ReadReg(R15 (PC))
T4C94 000:933.177 - 0.018ms returns 0x20000000
T4C94 000:933.189 JLINK_ClrBPEx(BPHandle = 0x00000008)
T4C94 000:933.198 - 0.014ms returns 0x00
T4C94 000:933.209 JLINK_ReadReg(R0)
T4C94 000:933.218 - 0.013ms returns 0x00000000
T4C94 000:934.485 JLINK_WriteMem(0x20000170, 0x290 Bytes, ...)
T4C94 000:934.514   Data:  01 F0 9F FB 00 28 1C D0 01 20 05 B0 F0 BD 00 97 ...
T4C94 000:934.543   CPU_WriteMem(656 bytes @ 0x20000170)
T4C94 000:937.006 - 2.543ms returns 0x290
T4C94 000:937.044 JLINK_WriteMem(0x20000400, 0x170 Bytes, ...)
T4C94 000:937.054   Data:  1D D1 00 97 00 22 80 21 20 46 0E 9B 01 F0 2A FA ...
T4C94 000:937.080   CPU_WriteMem(368 bytes @ 0x20000400)
T4C94 000:938.639 - 1.606ms returns 0x170
T4C94 000:938.662 JLINK_HasError()
T4C94 000:938.674 JLINK_WriteReg(R0, 0x08001000)
T4C94 000:938.688 - 0.017ms returns 0
T4C94 000:938.698 JLINK_WriteReg(R1, 0x00000400)
T4C94 000:938.707 - 0.012ms returns 0
T4C94 000:938.717 JLINK_WriteReg(R2, 0x20000170)
T4C94 000:938.725 - 0.012ms returns 0
T4C94 000:938.735 JLINK_WriteReg(R3, 0x00000000)
T4C94 000:938.744 - 0.012ms returns 0
T4C94 000:938.754 JLINK_WriteReg(R4, 0x00000000)
T4C94 000:938.762 - 0.012ms returns 0
T4C94 000:938.772 JLINK_WriteReg(R5, 0x00000000)
T4C94 000:938.780 - 0.012ms returns 0
T4C94 000:938.790 JLINK_WriteReg(R6, 0x00000000)
T4C94 000:938.799 - 0.012ms returns 0
T4C94 000:938.809 JLINK_WriteReg(R7, 0x00000000)
T4C94 000:938.817 - 0.012ms returns 0
T4C94 000:938.827 JLINK_WriteReg(R8, 0x00000000)
T4C94 000:938.835 - 0.012ms returns 0
T4C94 000:938.845 JLINK_WriteReg(R9, 0x2000016C)
T4C94 000:938.854 - 0.012ms returns 0
T4C94 000:938.864 JLINK_WriteReg(R10, 0x00000000)
T4C94 000:938.872 - 0.012ms returns 0
T4C94 000:938.882 JLINK_WriteReg(R11, 0x00000000)
T4C94 000:938.890 - 0.012ms returns 0
T4C94 000:938.900 JLINK_WriteReg(R12, 0x00000000)
T4C94 000:938.908 - 0.012ms returns 0
T4C94 000:938.918 JLINK_WriteReg(R13 (SP), 0x20001000)
T4C94 000:938.928 - 0.013ms returns 0
T4C94 000:938.938 JLINK_WriteReg(R14, 0x20000001)
T4C94 000:938.946 - 0.012ms returns 0
T4C94 000:938.956 JLINK_WriteReg(R15 (PC), 0x200000FA)
T4C94 000:938.965 - 0.012ms returns 0
T4C94 000:938.975 JLINK_WriteReg(XPSR, 0x01000000)
T4C94 000:938.983 - 0.012ms returns 0
T4C94 000:938.997 JLINK_WriteReg(MSP, 0x20001000)
T4C94 000:939.009 - 0.015ms returns 0
T4C94 000:939.019 JLINK_WriteReg(PSP, 0x20001000)
T4C94 000:939.027 - 0.012ms returns 0
T4C94 000:939.040 JLINK_WriteReg(CFBP, 0x00000000)
T4C94 000:939.049 - 0.012ms returns 0
T4C94 000:939.059 JLINK_SetBPEx(Addr = 0x20000000, Type = 0xFFFFFFF2)
T4C94 000:939.069 - 0.013ms returns 0x00000009
T4C94 000:939.079 JLINK_Go()
T4C94 000:939.098   CPU_ReadMem(4 bytes @ 0xE0001000)
T4C94 000:941.169 - 2.103ms
T4C94 000:941.193 JLINK_IsHalted()
T4C94 000:941.451 - 0.270ms returns FALSE
T4C94 000:941.475 JLINK_HasError()
T4C94 000:945.059 JLINK_IsHalted()
T4C94 000:945.349 - 0.303ms returns FALSE
T4C94 000:945.372 JLINK_HasError()
T4C94 000:947.057 JLINK_IsHalted()
T4C94 000:947.329 - 0.282ms returns FALSE
T4C94 000:947.349 JLINK_HasError()
T4C94 000:949.058 JLINK_IsHalted()
T4C94 000:949.353 - 0.307ms returns FALSE
T4C94 000:949.375 JLINK_HasError()
T4C94 000:951.057 JLINK_IsHalted()
T4C94 000:951.348 - 0.305ms returns FALSE
T4C94 000:951.373 JLINK_HasError()
T4C94 000:953.061 JLINK_IsHalted()
T4C94 000:953.435 - 0.387ms returns FALSE
T4C94 000:953.459 JLINK_HasError()
T4C94 000:955.053 JLINK_IsHalted()
T4C94 000:955.338 - 0.295ms returns FALSE
T4C94 000:955.360 JLINK_HasError()
T4C94 000:957.052 JLINK_IsHalted()
T4C94 000:957.308 - 0.266ms returns FALSE
T4C94 000:957.329 JLINK_HasError()
T4C94 000:959.069 JLINK_IsHalted()
T4C94 000:959.364 - 0.362ms returns FALSE
T4C94 000:959.446 JLINK_HasError()
T4C94 000:962.058 JLINK_IsHalted()
T4C94 000:962.337 - 0.290ms returns FALSE
T4C94 000:962.358 JLINK_HasError()
T4C94 000:964.052 JLINK_IsHalted()
T4C94 000:964.354 - 0.318ms returns FALSE
T4C94 000:964.380 JLINK_HasError()
T4C94 000:966.053 JLINK_IsHalted()
T4C94 000:966.335 - 0.293ms returns FALSE
T4C94 000:966.357 JLINK_HasError()
T4C94 000:968.094 JLINK_IsHalted()
T4C94 000:968.395 - 0.317ms returns FALSE
T4C94 000:968.422 JLINK_HasError()
T4C94 000:970.063 JLINK_IsHalted()
T4C94 000:970.361 - 0.309ms returns FALSE
T4C94 000:970.382 JLINK_HasError()
T4C94 000:972.057 JLINK_IsHalted()
T4C94 000:973.902   CPU_ReadMem(2 bytes @ 0x20000000)
T4C94 000:974.171 - 2.123ms returns TRUE
T4C94 000:974.191 JLINK_ReadReg(R15 (PC))
T4C94 000:974.204 - 0.017ms returns 0x20000000
T4C94 000:974.215 JLINK_ClrBPEx(BPHandle = 0x00000009)
T4C94 000:974.224 - 0.013ms returns 0x00
T4C94 000:974.235 JLINK_ReadReg(R0)
T4C94 000:974.244 - 0.013ms returns 0x00000000
T4C94 000:975.016 JLINK_WriteMem(0x20000170, 0x290 Bytes, ...)
T4C94 000:975.047   Data:  08 40 00 90 08 BD 00 00 00 10 02 40 00 28 05 DB ...
T4C94 000:975.078   CPU_WriteMem(656 bytes @ 0x20000170)
T4C94 000:977.541 - 2.549ms returns 0x290
T4C94 000:977.576 JLINK_WriteMem(0x20000400, 0x170 Bytes, ...)
T4C94 000:977.585   Data:  02 03 04 05 06 07 08 09 0A 0B 0C 0D 0E 0F 10 10 ...
T4C94 000:977.614   CPU_WriteMem(368 bytes @ 0x20000400)
T4C94 000:979.155 - 1.591ms returns 0x170
T4C94 000:979.183 JLINK_HasError()
T4C94 000:979.198 JLINK_WriteReg(R0, 0x08001400)
T4C94 000:979.213 - 0.018ms returns 0
T4C94 000:979.226 JLINK_WriteReg(R1, 0x00000400)
T4C94 000:979.235 - 0.012ms returns 0
T4C94 000:979.247 JLINK_WriteReg(R2, 0x20000170)
T4C94 000:979.256 - 0.012ms returns 0
T4C94 000:979.268 JLINK_WriteReg(R3, 0x00000000)
T4C94 000:979.277 - 0.012ms returns 0
T4C94 000:979.289 JLINK_WriteReg(R4, 0x00000000)
T4C94 000:979.298 - 0.012ms returns 0
T4C94 000:979.310 JLINK_WriteReg(R5, 0x00000000)
T4C94 000:979.318 - 0.012ms returns 0
T4C94 000:979.331 JLINK_WriteReg(R6, 0x00000000)
T4C94 000:979.339 - 0.012ms returns 0
T4C94 000:979.351 JLINK_WriteReg(R7, 0x00000000)
T4C94 000:979.360 - 0.012ms returns 0
T4C94 000:979.372 JLINK_WriteReg(R8, 0x00000000)
T4C94 000:979.381 - 0.012ms returns 0
T4C94 000:979.393 JLINK_WriteReg(R9, 0x2000016C)
T4C94 000:979.401 - 0.012ms returns 0
T4C94 000:979.414 JLINK_WriteReg(R10, 0x00000000)
T4C94 000:979.422 - 0.012ms returns 0
T4C94 000:979.434 JLINK_WriteReg(R11, 0x00000000)
T4C94 000:979.443 - 0.016ms returns 0
T4C94 000:979.462 JLINK_WriteReg(R12, 0x00000000)
T4C94 000:979.470 - 0.012ms returns 0
T4C94 000:979.482 JLINK_WriteReg(R13 (SP), 0x20001000)
T4C94 000:979.494 - 0.015ms returns 0
T4C94 000:979.506 JLINK_WriteReg(R14, 0x20000001)
T4C94 000:979.514 - 0.012ms returns 0
T4C94 000:979.527 JLINK_WriteReg(R15 (PC), 0x200000FA)
T4C94 000:979.536 - 0.012ms returns 0
T4C94 000:979.548 JLINK_WriteReg(XPSR, 0x01000000)
T4C94 000:979.556 - 0.012ms returns 0
T4C94 000:979.569 JLINK_WriteReg(MSP, 0x20001000)
T4C94 000:979.577 - 0.012ms returns 0
T4C94 000:979.589 JLINK_WriteReg(PSP, 0x20001000)
T4C94 000:979.598 - 0.012ms returns 0
T4C94 000:979.610 JLINK_WriteReg(CFBP, 0x00000000)
T4C94 000:979.619 - 0.012ms returns 0
T4C94 000:979.631 JLINK_SetBPEx(Addr = 0x20000000, Type = 0xFFFFFFF2)
T4C94 000:979.641 - 0.014ms returns 0x0000000A
T4C94 000:979.654 JLINK_Go()
T4C94 000:979.671   CPU_ReadMem(4 bytes @ 0xE0001000)
T4C94 000:981.653 - 2.016ms
T4C94 000:981.687 JLINK_IsHalted()
T4C94 000:981.930 - 0.255ms returns FALSE
T4C94 000:981.956 JLINK_HasError()
T4C94 000:983.063 JLINK_IsHalted()
T4C94 000:983.360 - 0.311ms returns FALSE
T4C94 000:983.385 JLINK_HasError()
T4C94 000:988.055 JLINK_IsHalted()
T4C94 000:988.357 - 0.313ms returns FALSE
T4C94 000:988.378 JLINK_HasError()
T4C94 000:990.049 JLINK_IsHalted()
T4C94 000:990.320 - 0.280ms returns FALSE
T4C94 000:990.340 JLINK_HasError()
T4C94 000:992.055 JLINK_IsHalted()
T4C94 000:992.416 - 0.373ms returns FALSE
T4C94 000:992.439 JLINK_HasError()
T4C94 000:994.052 JLINK_IsHalted()
T4C94 000:994.333 - 0.291ms returns FALSE
T4C94 000:994.354 JLINK_HasError()
T4C94 000:996.049 JLINK_IsHalted()
T4C94 000:996.343 - 0.304ms returns FALSE
T4C94 000:996.364 JLINK_HasError()
T4C94 000:998.053 JLINK_IsHalted()
T4C94 000:998.330 - 0.287ms returns FALSE
T4C94 000:998.351 JLINK_HasError()
T4C94 001:000.075 JLINK_IsHalted()
T4C94 001:000.355 - 0.291ms returns FALSE
T4C94 001:000.376 JLINK_HasError()
T4C94 001:002.067 JLINK_IsHalted()
T4C94 001:002.351 - 0.295ms returns FALSE
T4C94 001:002.372 JLINK_HasError()
T4C94 001:004.056 JLINK_IsHalted()
T4C94 001:004.347 - 0.305ms returns FALSE
T4C94 001:004.372 JLINK_HasError()
T4C94 001:006.049 JLINK_IsHalted()
T4C94 001:006.332 - 0.293ms returns FALSE
T4C94 001:006.352 JLINK_HasError()
T4C94 001:008.048 JLINK_IsHalted()
T4C94 001:008.310 - 0.271ms returns FALSE
T4C94 001:008.330 JLINK_HasError()
T4C94 001:010.049 JLINK_IsHalted()
T4C94 001:010.327 - 0.288ms returns FALSE
T4C94 001:010.347 JLINK_HasError()
T4C94 001:012.056 JLINK_IsHalted()
T4C94 001:013.862   CPU_ReadMem(2 bytes @ 0x20000000)
T4C94 001:014.132 - 2.086ms returns TRUE
T4C94 001:014.153 JLINK_ReadReg(R15 (PC))
T4C94 001:014.166 - 0.017ms returns 0x20000000
T4C94 001:014.177 JLINK_ClrBPEx(BPHandle = 0x0000000A)
T4C94 001:014.186 - 0.013ms returns 0x00
T4C94 001:014.197 JLINK_ReadReg(R0)
T4C94 001:014.205 - 0.012ms returns 0x00000000
T4C94 001:015.249 JLINK_WriteMem(0x20000170, 0x290 Bytes, ...)
T4C94 001:015.267   Data:  CF FA C0 1B 02 28 9A D8 68 6A 80 07 F7 D5 0F E0 ...
T4C94 001:015.291   CPU_WriteMem(656 bytes @ 0x20000170)
T4C94 001:017.703 - 2.477ms returns 0x290
T4C94 001:017.738 JLINK_WriteMem(0x20000400, 0x170 Bytes, ...)
T4C94 001:017.748   Data:  10 43 22 69 1A 43 10 43 88 60 21 68 E0 68 08 61 ...
T4C94 001:017.773   CPU_WriteMem(368 bytes @ 0x20000400)
T4C94 001:019.396 - 1.675ms returns 0x170
T4C94 001:019.426 JLINK_HasError()
T4C94 001:019.439 JLINK_WriteReg(R0, 0x08001800)
T4C94 001:019.453 - 0.018ms returns 0
T4C94 001:019.463 JLINK_WriteReg(R1, 0x00000400)
T4C94 001:019.472 - 0.012ms returns 0
T4C94 001:019.482 JLINK_WriteReg(R2, 0x20000170)
T4C94 001:019.491 - 0.012ms returns 0
T4C94 001:019.501 JLINK_WriteReg(R3, 0x00000000)
T4C94 001:019.509 - 0.012ms returns 0
T4C94 001:019.519 JLINK_WriteReg(R4, 0x00000000)
T4C94 001:019.527 - 0.012ms returns 0
T4C94 001:019.538 JLINK_WriteReg(R5, 0x00000000)
T4C94 001:019.547 - 0.012ms returns 0
T4C94 001:019.557 JLINK_WriteReg(R6, 0x00000000)
T4C94 001:019.569 - 0.018ms returns 0
T4C94 001:019.581 JLINK_WriteReg(R7, 0x00000000)
T4C94 001:019.589 - 0.012ms returns 0
T4C94 001:019.599 JLINK_WriteReg(R8, 0x00000000)
T4C94 001:019.608 - 0.012ms returns 0
T4C94 001:019.618 JLINK_WriteReg(R9, 0x2000016C)
T4C94 001:019.626 - 0.012ms returns 0
T4C94 001:019.637 JLINK_WriteReg(R10, 0x00000000)
T4C94 001:019.645 - 0.012ms returns 0
T4C94 001:019.655 JLINK_WriteReg(R11, 0x00000000)
T4C94 001:019.663 - 0.012ms returns 0
T4C94 001:019.673 JLINK_WriteReg(R12, 0x00000000)
T4C94 001:019.683 - 0.014ms returns 0
T4C94 001:019.693 JLINK_WriteReg(R13 (SP), 0x20001000)
T4C94 001:019.703 - 0.013ms returns 0
T4C94 001:019.713 JLINK_WriteReg(R14, 0x20000001)
T4C94 001:019.721 - 0.012ms returns 0
T4C94 001:019.731 JLINK_WriteReg(R15 (PC), 0x200000FA)
T4C94 001:019.740 - 0.012ms returns 0
T4C94 001:019.750 JLINK_WriteReg(XPSR, 0x01000000)
T4C94 001:019.759 - 0.012ms returns 0
T4C94 001:019.768 JLINK_WriteReg(MSP, 0x20001000)
T4C94 001:019.777 - 0.012ms returns 0
T4C94 001:019.787 JLINK_WriteReg(PSP, 0x20001000)
T4C94 001:019.796 - 0.012ms returns 0
T4C94 001:019.806 JLINK_WriteReg(CFBP, 0x00000000)
T4C94 001:019.814 - 0.012ms returns 0
T4C94 001:019.824 JLINK_SetBPEx(Addr = 0x20000000, Type = 0xFFFFFFF2)
T4C94 001:019.834 - 0.014ms returns 0x0000000B
T4C94 001:019.845 JLINK_Go()
T4C94 001:019.862   CPU_ReadMem(4 bytes @ 0xE0001000)
T4C94 001:021.861 - 2.028ms
T4C94 001:021.883 JLINK_IsHalted()
T4C94 001:022.127 - 0.252ms returns FALSE
T4C94 001:022.145 JLINK_HasError()
T4C94 001:024.059 JLINK_IsHalted()
T4C94 001:024.372 - 0.325ms returns FALSE
T4C94 001:024.410 JLINK_HasError()
T4C94 001:026.056 JLINK_IsHalted()
T4C94 001:026.340 - 0.295ms returns FALSE
T4C94 001:026.361 JLINK_HasError()
T4C94 001:028.052 JLINK_IsHalted()
T4C94 001:028.330 - 0.288ms returns FALSE
T4C94 001:028.351 JLINK_HasError()
